  vcan0  022   [6]  FE FF 01 AB 08 04
  vcan0  422   [8]  00 00 08 08 00 04 00 00
  vcan0  422   [8]  02 20 41 15 01 08 85 15
  vcan0  422   [8]  01 08 85 15 01 08 85 15
  vcan0  422   [8]  01 08 85 15 01 08 85 15
  vcan0  422   [8]  01 08 00 00 00 00 00 00
  vcan0  422   [8]  00 00 00 00 00 00 00 00
  vcan0  422   [8]  00 00 85 15 01 08 85 15
  vcan0  422   [8]  01 08 00 00 00 00 85 15
  vcan0  422   [8]  01 08 85 15 01 08 85 15
  vcan0  422   [8]  01 08 85 15 01 08 85 15
  vcan0  422   [8]  01 08 85 15 01 08 85 15
  vcan0  422   [8]  01 08 85 15 01 08 89 93
  vcan0  422   [8]  01 08 A5 93 01 08 55 2F
  vcan0  422   [8]  01 08 85 2F 01 08 85 15
  vcan0  422   [8]  01 08 85 15 01 08 85 15
  vcan0  422   [8]  01 08 85 15 01 08 85 15
  vcan0  422   [8]  01 08 85 15 01 08 85 15
  vcan0  422   [8]  01 08 85 15 01 08 85 15
  vcan0  422   [8]  01 08 8D C0 01 08 B1 C4
  vcan0  422   [8]  01 08 85 15 01 08 B9 C0
  vcan0  422   [8]  01 08 85 15 01 08 85 15
  vcan0  422   [8]  01 08 19 D2 01 08 85 15
  vcan0  422   [8]  01 08 85 15 01 08 85 15
  vcan0  422   [8]  01 08 85 15 01 08 85 15
  vcan0  422   [8]  01 08 85 15 01 08 85 15
  vcan0  422   [8]  01 08 85 15 01 08 85 15
  vcan0  422   [8]  01 08 7D 9B 01 08 05 88
  vcan0  422   [8]  01 08 85 15 01 08 85 15
  vcan0  422   [8]  01 08 85 15 01 08 C1 93
  vcan0  422   [8]  01 08 85 15 01 08 85 15
  vcan0  422   [8]  01 08 85 15 01 08 85 15
  vcan0  422   [8]  01 08 65 B4 01 08 85 15
  vcan0  422   [8]  01 08 85 15 01 08 85 15
  vcan0  422   [8]  01 08 85 15 01 08 85 15
  vcan0  422   [8]  01 08 85 15 01 08 85 15
  vcan0  422   [8]  01 08 85 15 01 08 85 15
  vcan0  422   [8]  01 08 85 15 01 08 85 15
  vcan0  422   [8]  01 08 85 15 01 08 85 15
  vcan0  422   [8]  01 08 85 15 01 08 85 15
  vcan0  422   [8]  01 08 85 15 01 08 85 15
  vcan0  422   [8]  01 08 85 15 01 08 85 15
  vcan0  422   [8]  01 08 85 15 01 08 85 15
  vcan0  422   [8]  01 08 85 15 01 08 85 15
  vcan0  422   [8]  01 08 85 15 01 08 85 15
  vcan0  422   [8]  01 08 85 15 01 08 85 15
  vcan0  422   [8]  01 08 85 15 01 08 85 15
  vcan0  422   [8]  01 08 85 15 01 08 85 15
  vcan0  422   [8]  01 08 85 15 01 08 85 15
  vcan0  422   [8]  01 08 85 15 01 08 85 15
  vcan0  422   [8]  01 08 85 15 01 08 00 00
  vcan0  422   [8]  00 00 00 00 00 00 00 00
  vcan0  422   [8]  00 00 00 00 00 00 00 00
  vcan0  422   [8]  00 00 00 00 00 00 00 00
  vcan0  422   [8]  00 00 00 00 00 00 00 00
  vcan0  422   [8]  00 00 00 00 00 00 00 00
  vcan0  422   [8]  00 00 00 00 00 00 00 00
  vcan0  422   [8]  00 00 00 00 00 00 10 B5
  vcan0  422   [8]  05 4C 23 78 33 B9 04 4B
  vcan0  422   [8]  13 B1 04 48 AF F3 00 80
  vcan0  422   [8]  01 23 23 70 10 BD 90 0E
  vcan0  422   [8]  00 20 00 00 00 00 0C AF
  vcan0  422   [8]  02 08 08 B5 03 4B 1B B1
  vcan0  422   [8]  03 49 03 48 AF F3 00 80
  vcan0  422   [8]  08 BD 00 00 00 00 94 0E
  vcan0  422   [8]  00 20 0C AF 02 08 81 F0
  vcan0  422   [8]  00 41 02 E0 00 BF 83 F0
  vcan0  422   [8]  00 43 30 B5 4F EA 41 04
  vcan0  422   [8]  4F EA 43 05 94 EA 05 0F
  vcan0  422   [8]  08 BF 90 EA 02 0F 1F BF
  vcan0  422   [8]  54 EA 00 0C 55 EA 02 0C
  vcan0  422   [8]  7F EA 64 5C 7F EA 65 5C
  vcan0  422   [8]  00 F0 E2 80 4F EA 54 54
  vcan0  422   [8]  D4 EB 55 55 B8 BF 6D 42
  vcan0  422   [8]  0C DD 2C 44 80 EA 02 02
  vcan0  422   [8]  81 EA 03 03 82 EA 00 00
  vcan0  422   [8]  83 EA 01 01 80 EA 02 02
  vcan0  422   [8]  81 EA 03 03 36 2D 88 BF
  vcan0  422   [8]  30 BD 11 F0 00 4F 4F EA
  vcan0  422   [8]  01 31 4F F4 80 1C 4C EA
  vcan0  422   [8]  11 31 02 D0 40 42 61 EB
  vcan0  422   [8]  41 01 13 F0 00 4F 4F EA
  vcan0  422   [8]  03 33 4C EA 13 33 02 D0
  vcan0  422   [8]  52 42 63 EB 43 03 94 EA
  vcan0  422   [8]  05 0F 00 F0 A7 80 A4 F1
  vcan0  422   [8]  01 04 D5 F1 20 0E 0D DB
  vcan0  422   [8]  02 FA 0E FC 22 FA 05 F2
  vcan0  422   [8]  80 18 41 F1 00 01 03 FA
  vcan0  422   [8]  0E F2 80 18 43 FA 05 F3
  vcan0  422   [8]  59 41 0E E0 A5 F1 20 05
  vcan0  422   [8]  0E F1 20 0E 01 2A 03 FA
  vcan0  422   [8]  0E FC 28 BF 4C F0 02 0C
  vcan0  422   [8]  43 FA 05 F3 C0 18 51 EB
  vcan0  422   [8]  E3 71 01 F0 00 45 07 D5
  vcan0  422   [8]  4F F0 00 0E DC F1 00 0C
  vcan0  422   [8]  7E EB 00 00 6E EB 01 01
  vcan0  422   [8]  B1 F5 80 1F 1B D3 B1 F5
  vcan0  422   [8]  00 1F 0C D3 49 08 5F EA
  vcan0  422   [8]  30 00 4F EA 3C 0C 04 F1
  vcan0  422   [8]  01 04 4F EA 44 52 12 F5
  vcan0  422   [8]  80 0F 80 F0 9A 80 BC F1
  vcan0  422   [8]  00 4F 08 BF 5F EA 50 0C
  vcan0  422   [8]  50 F1 00 00 41 EB 04 51
  vcan0  422   [8]  41 EA 05 01 30 BD 5F EA
  vcan0  422   [8]  4C 0C 40 41 41 EB 01 01
  vcan0  422   [8]  11 F4 80 1F A4 F1 01 04
  vcan0  422   [8]  E9 D1 91 F0 00 0F 04 BF
  vcan0  422   [8]  01 46 00 20 B1 FA 81 F3
  vcan0  422   [8]  08 BF 20 33 A3 F1 0B 03
  vcan0  422   [8]  B3 F1 20 02 0C DA 0C 32
  vcan0  422   [8]  08 DD 02 F1 14 0C C2 F1
  vcan0  422   [8]  0C 02 01 FA 0C F0 21 FA
  vcan0  422   [8]  02 F1 0C E0 02 F1 14 02
  vcan0  422   [8]  D8 BF C2 F1 20 0C 01 FA
  vcan0  422   [8]  02 F1 20 FA 0C FC DC BF
  vcan0  422   [8]  41 EA 0C 01 90 40 E4 1A
  vcan0  422   [8]  A2 BF 01 EB 04 51 29 43
  vcan0  422   [8]  30 BD 6F EA 04 04 1F 3C
  vcan0  422   [8]  1C DA 0C 34 0E DC 04 F1
  vcan0  422   [8]  14 04 C4 F1 20 02 20 FA
  vcan0  422   [8]  04 F0 01 FA 02 F3 40 EA
  vcan0  422   [8]  03 00 21 FA 04 F3 45 EA
  vcan0  422   [8]  03 01 30 BD C4 F1 0C 04
  vcan0  422   [8]  C4 F1 20 02 20 FA 02 F0
  vcan0  422   [8]  01 FA 04 F3 40 EA 03 00
  vcan0  422   [8]  29 46 30 BD 21 FA 04 F0
  vcan0  422   [8]  29 46 30 BD 94 F0 00 0F
  vcan0  422   [8]  83 F4 80 13 06 BF 81 F4
  vcan0  422   [8]  80 11 01 34 01 3D 4E E7
  vcan0  422   [8]  7F EA 64 5C 18 BF 9E 5E
